Circuit: * C:\Users\dunae\Documents\INSA\3A\BE_Laser\LTSpice\adaptateur_adc_seul.asc

Direct Newton iteration failed to find .op point.  (Use ".option noopiter" to skip.)
Starting Gmin stepping
Gmin = 10
Gmin = 1.07374
vernier = 0.5
vernier = 0.25
vernier = 0.125
vernier = 0.0625
Gmin = 1.08884
vernier = 0.03125
vernier = 0.015625
Gmin = 1.03122
vernier = 0.0078125
vernier = 0.0104167
vernier = 0.00520833
Gmin = 1.01724
vernier = 0.00260417
vernier = 0.00347222
Gmin = 1.01042
vernier = 0.00173611
vernier = 0.00231481
vernier = 0.00115741
Gmin = 1.00852
vernier = 0.00154321
vernier = 0.000771604
Gmin = 1.00667
vernier = 0.00102881
vernier = 0.000514403
vernier = 0.00068587
Gmin = 1.00542
vernier = 0.000514403
vernier = 0.00068587
vernier = 0.000514402
Gmin = 1.00461
Gmin = 0
Gmin stepping failed

Starting source stepping with srcstepmethod=0
Source Step = 3.0303%
Source Step = 18.1937%
vernier = 0.000976563
Source Step = 18.2114%
Source Step = 18.241%
Source Step = 18.2706%
Source Step = 18.3002%
Source Step = 18.3298%
vernier = 0.00146484
Source Step = 18.3697%
Source Step = 18.4141%
Source Step = 18.4585%
Source Step = 18.5029%
Source Step = 18.5473%
vernier = 0.00219727
Source Step = 18.605%
Source Step = 18.6716%
Source Step = 18.7382%
Source Step = 18.8047%
Source Step = 18.8713%
vernier = 0.0032959
Source Step = 18.9546%
Source Step = 19.0544%
Source Step = 19.1543%
Source Step = 19.2542%
Source Step = 19.3541%
vernier = 0.00494385
Source Step = 19.4739%
Source Step = 19.6237%
Source Step = 19.7735%
Source Step = 19.9234%
Source Step = 20.0732%
vernier = 0.00741577
Source Step = 20.2455%
Source Step = 20.4702%
Source Step = 20.6949%
Source Step = 20.9196%
Source Step = 21.1443%
vernier = 0.0111237
Source Step = 21.3915%
Source Step = 21.7286%
Source Step = 22.0657%
Source Step = 22.4028%
Source Step = 22.7398%
vernier = 0.0166855
Source Step = 23.0938%
Source Step = 23.5994%
Source Step = 24.105%
Source Step = 24.6106%
Source Step = 25.1163%
Source Step = 25.6219%
vernier = 0.0250282
Source Step = 26.3803%
Source Step = 27.1388%
Source Step = 27.8972%
Source Step = 28.6556%
Source Step = 29.414%
vernier = 0.0375423
Source Step = 30.5138%
Source Step = 31.6514%
Source Step = 32.7891%
Source Step = 33.9267%
Source Step = 35.0644%
vernier = 0.0563135
Source Step = 36.6571%
Source Step = 38.3635%
Source Step = 40.07%
Source Step = 41.7765%
Source Step = 43.4829%
vernier = 0.0844703
Source Step = 45.7867%
Source Step = 48.3464%
Source Step = 50.9061%
Source Step = 53.4658%
Source Step = 56.0255%
vernier = 0.126705
Source Step = 59.3531%
Source Step = 63.1927%
Source Step = 67.0322%
Source Step = 70.8718%
Source Step = 74.7113%
vernier = 0.190058
Source Step = 79.5108%
Source Step = 85.2701%
Source Step = 91.0295%
Source Step = 96.7888%
Source Step = 100%
Source stepping succeeded in finding the operating point.

Semiconductor Device Operating Points:
                        --- Diodes ---
Name:    d:u1:3      d:u1:6      d:u1:5      d:u1:4      d:u1:1
Model:    u1:dc       u1:y        u1:y        u1:x        u1:x
Id:      1.00e-04   -2.06e-22    2.06e-22   -1.06e-10   -7.35e-11
Vd:      1.80e+01   -2.06e-10    2.06e-10   -1.06e+01   -7.35e+00
Req:     1.00e-02    1.00e-12    1.00e-12    1.00e-11    1.00e-11
CAP:     0.00e+00    0.00e+00    0.00e+00    0.00e+00    0.00e+00

                        --- VDMOSFET Transistors ---
Name:        m:u1:2      m:u1:1
Model:        u1:p        u1:n
Id:         -2.70e-03    2.70e-03
Vgs:         2.06e-10    2.06e-10
Vds:        -1.06e+01    7.35e+00
Vth:         3.00e-01   -3.00e-01
Gm:          1.80e-02    1.80e-02
Gds:         0.00e+00    0.00e+00
Cgs:         0.00e+00    0.00e+00
Cgd:         0.00e+00    0.00e+00
Cbody:       0.00e+00    0.00e+00



Date: Sat Mar 12 13:42:53 2022
Total elapsed time: 0.150 seconds.

tnom = 27
temp = 27
method = trap
totiter = 8985
traniter = 0
tranpoints = 0
accept = 0
rejected = 0
matrix size = 11
fillins = 3
solver = Normal
Matrix Compiler1:      34 opcodes
Matrix Compiler2: off  [0.2]/0.3/0.3

